T5854 87689:248.355   SEGGER J-Link V7.20b Log File
T5854 87689:248.410   DLL Compiled: May 21 2021 17:05:23
T5854 87689:248.419   Logging started @ 2021-09-15 01:41
T5854 87689:248.427 - 4275.663ms
T5854 87689:248.446 JLINK_SetWarnOutHandler(...)
T5854 87689:248.456 - 0.013ms
T5854 87689:248.467 JLINK_OpenEx(...)
T5854 87689:249.911   Firmware: J-Link V9 compiled Jun  2 2222 22:22:22
T5854 87689:250.407   Firmware: J-Link V9 compiled Jun  2 2222 22:22:22
T5854 87689:250.646   Decompressing FW timestamp took 171 us
T5854 87689:258.534   Hardware: V9.40
T5854 87689:258.565   S/N: 81480416
T5854 87689:258.577   OEM: SEGGER
T5854 87689:258.589   Feature(s): GDB, RDI, FlashBP, FlashDL, JFlash, RDDI
T5854 87689:260.341   TELNET listener socket opened on port 19021
T5854 87689:263.833   WEBSRV Starting webserver
T5854 87689:263.981   WEBSRV Webserver running on local port 19080
T5854 87689:263.997 - 15.535ms returns "O.K."
T5854 87689:264.513 JLINK_GetEmuCaps()
T5854 87689:264.531 - 0.022ms returns 0xB9FF7BBF
T5854 87689:264.545 JLINK_TIF_GetAvailable(...)
T5854 87689:264.782 - 0.246ms
T5854 87689:264.803 JLINK_SetErrorOutHandler(...)
T5854 87689:264.812 - 0.013ms
T5854 87689:264.827 JLINK_ExecCommand("ProjectFile = "D:\RMB Holland bv\Products\Reed machines\Software\CubeMX\80352105\MDK-ARM\JLinkSettings.ini"", ...). 
T5854 87689:266.101 - 1.286ms returns 0x00
T5854 87689:266.152 JLINK_ExecCommand("Device = STM32F103RC", ...). 
T5854 87689:266.743   Device "STM32F103RC" selected.
T5854 87689:267.164 - 0.996ms returns 0x00
T5854 87689:267.193 JLINK_GetHardwareVersion()
T5854 87689:267.202 - 0.013ms returns 94000
T5854 87689:267.217 JLINK_GetDLLVersion()
T5854 87689:267.225 - 0.012ms returns 72002
T5854 87689:267.236 JLINK_GetOEMString(...)
T5854 87689:267.247 JLINK_GetFirmwareString(...)
T5854 87689:267.256 - 0.012ms
T5854 87689:267.281 JLINK_GetDLLVersion()
T5854 87689:267.290 - 0.012ms returns 72002
T5854 87689:267.300 JLINK_GetCompileDateTime()
T5854 87689:267.308 - 0.011ms
T5854 87689:267.323 JLINK_GetFirmwareString(...)
T5854 87689:267.332 - 0.012ms
T5854 87689:267.347 JLINK_GetHardwareVersion()
T5854 87689:267.369 - 0.026ms returns 94000
T5854 87689:267.385 JLINK_GetSN()
T5854 87689:267.407 - 0.025ms returns 81480416
T5854 87689:267.421 JLINK_GetOEMString(...)
T5854 87689:267.443 JLINK_TIF_Select(JLINKARM_TIF_SWD)
T5854 87689:268.480 - 1.047ms returns 0x00
T5854 87689:268.506 JLINK_HasError()
T5854 87689:268.520 JLINK_SetSpeed(500)
T5854 87689:268.714 - 0.204ms
T5854 87689:268.740 JLINK_GetId()
T5854 87689:269.036   InitTarget() start
T5854 87689:269.055    J-Link Script File: Executing InitTarget()
T5854 87689:280.292   InitTarget() end
T5854 87689:281.839   Found SW-DP with ID 0x1BA01477
T5854 87689:284.855   Old FW that does not support reading DPIDR via DAP jobs
T5854 87689:286.850   DPv0 detected
T5854 87689:286.873   Scanning AP map to find all available APs
T5854 87689:288.738   AP[1]: Stopped AP scan as end of AP map has been reached
T5854 87689:288.766   AP[0]: AHB-AP (IDR: 0x14770011)
T5854 87689:288.783   Iterating through AP map to find AHB-AP to use
T5854 87689:291.454   AP[0]: Core found
T5854 87689:291.494   AP[0]: AHB-AP ROM base: 0xE00FF000
T5854 87689:292.768   CPUID register: 0x411FC231. Implementer code: 0x41 (ARM)
T5854 87689:292.811   Found Cortex-M3 r1p1, Little endian.
T5854 87689:394.354   -- Max. mem block: 0x00010AE0
T5854 87689:394.637   CPU_ReadMem(4 bytes @ 0xE000EDF0)
T5854 87689:396.101   CPU_WriteMem(4 bytes @ 0xE000EDF0)
T5854 87689:397.544   CPU_ReadMem(4 bytes @ 0xE0002000)
T5854 87689:398.915   FPUnit: 6 code (BP) slots and 2 literal slots
T5854 87689:398.934   CPU_ReadMem(4 bytes @ 0xE000EDFC)
T5854 87689:400.372   CPU_WriteMem(4 bytes @ 0xE000EDFC)
T5854 87689:401.756   CPU_ReadMem(4 bytes @ 0xE0001000)
T5854 87689:403.313   CPU_WriteMem(4 bytes @ 0xE0001000)
T5854 87689:404.712   CPU_ReadMem(4 bytes @ 0xE000ED88)
T5854 87689:406.070   CPU_WriteMem(4 bytes @ 0xE000ED88)
T5854 87689:407.472   CPU_ReadMem(4 bytes @ 0xE000ED88)
T5854 87689:408.854   CPU_WriteMem(4 bytes @ 0xE000ED88)
T5854 87689:410.331   CoreSight components:
T5854 87689:410.354   ROMTbl[0] @ E00FF000
T5854 87689:410.369   CPU_ReadMem(64 bytes @ 0xE00FF000)
T5854 87689:414.234   CPU_ReadMem(32 bytes @ 0xE000EFE0)
T5854 87689:416.743   ROMTbl[0][0]: E000E000, CID: B105E00D, PID: 001BB000 SCS
T5854 87689:416.764   CPU_ReadMem(32 bytes @ 0xE0001FE0)
T5854 87689:419.292   ROMTbl[0][1]: E0001000, CID: B105E00D, PID: 001BB002 DWT
T5854 87689:419.325   CPU_ReadMem(32 bytes @ 0xE0002FE0)
T5854 87689:421.834   ROMTbl[0][2]: E0002000, CID: B105E00D, PID: 000BB003 FPB
T5854 87689:421.854   CPU_ReadMem(32 bytes @ 0xE0000FE0)
T5854 87689:424.369   ROMTbl[0][3]: E0000000, CID: B105E00D, PID: 001BB001 ITM
T5854 87689:424.389   CPU_ReadMem(32 bytes @ 0xE0040FE0)
T5854 87689:426.937   ROMTbl[0][4]: E0040000, CID: B105900D, PID: 001BB923 TPIU-Lite
T5854 87689:426.956   CPU_ReadMem(32 bytes @ 0xE0041FE0)
T5854 87689:429.500   ROMTbl[0][5]: E0041000, CID: B105900D, PID: 101BB924 ETM-M3
T5854 87689:430.103 - 161.373ms returns 0x1BA01477
T5854 87689:430.126 JLINK_GetDLLVersion()
T5854 87689:430.135 - 0.013ms returns 72002
T5854 87689:430.152 JLINK_CORE_GetFound()
T5854 87689:430.161 - 0.013ms returns 0x30000FF
T5854 87689:430.180 JLINK_GetDebugInfo(0x100 = JLINKARM_ROM_TABLE_ADDR_INDEX)
T5854 87689:430.189   Value=0xE00FF000
T5854 87689:430.201 - 0.025ms returns 0
T5854 87689:430.283 JLINK_GetDebugInfo(0x100 = JLINKARM_ROM_TABLE_ADDR_INDEX)
T5854 87689:430.298   Value=0xE00FF000
T5854 87689:430.311 - 0.032ms returns 0
T5854 87689:430.322 JLINK_GetDebugInfo(0x101 = JLINKARM_DEBUG_INFO_ETM_ADDR_INDEX)
T5854 87689:430.330   Value=0xE0041000
T5854 87689:430.342 - 0.024ms returns 0
T5854 87689:430.356 JLINK_ReadMemEx(0xE0041FD0, 0x20 Bytes, Flags = 0x02000004)
T5854 87689:430.371   CPU_ReadMem(32 bytes @ 0xE0041FD0)
T5854 87689:432.832   Data:  04 00 00 00 00 00 00 00 00 00 00 00 00 00 00 00 ...
T5854 87689:432.852 - 2.501ms returns 32 (0x20)
T5854 87689:432.871 JLINK_GetDebugInfo(0x102 = JLINKARM_DEBUG_INFO_MTB_ADDR_INDEX)
T5854 87689:432.880   Value=0x00000000
T5854 87689:432.892 - 0.025ms returns 0
T5854 87689:432.903 JLINK_GetDebugInfo(0x103 = JLINKARM_DEBUG_INFO_TPIU_ADDR_INDEX)
T5854 87689:432.911   Value=0xE0040000
T5854 87689:432.923 - 0.024ms returns 0
T5854 87689:432.934 JLINK_GetDebugInfo(0x104 = JLINKARM_DEBUG_INFO_ITM_ADDR_INDEX)
T5854 87689:432.942   Value=0xE0000000
T5854 87689:432.954 - 0.024ms returns 0
T5854 87689:432.964 JLINK_GetDebugInfo(0x105 = JLINKARM_DEBUG_INFO_DWT_ADDR_INDEX)
T5854 87689:432.993   Value=0xE0001000
T5854 87689:433.008 - 0.050ms returns 0
T5854 87689:433.022 JLINK_GetDebugInfo(0x106 = JLINKARM_DEBUG_INFO_FPB_ADDR_INDEX)
T5854 87689:433.030   Value=0xE0002000
T5854 87689:433.042 - 0.024ms returns 0
T5854 87689:433.053 JLINK_GetDebugInfo(0x107 = JLINKARM_DEBUG_INFO_NVIC_ADDR_INDEX)
T5854 87689:433.062   Value=0xE000E000
T5854 87689:433.074 - 0.025ms returns 0
T5854 87689:433.084 JLINK_GetDebugInfo(0x10C = JLINKARM_DEBUG_INFO_DBG_ADDR_INDEX)
T5854 87689:433.093   Value=0xE000EDF0
T5854 87689:433.106 - 0.026ms returns 0
T5854 87689:433.116 JLINK_GetDebugInfo(0x01 = Unknown)
T5854 87689:433.126   Value=0x00000000
T5854 87689:433.157 - 0.044ms returns 0
T5854 87689:433.172 JLINK_ReadMemU32(0xE000ED00, 0x1 Items)
T5854 87689:433.186   CPU_ReadMem(4 bytes @ 0xE000ED00)
T5854 87689:434.586   Data:  31 C2 1F 41
T5854 87689:434.605   Debug reg: CPUID
T5854 87689:434.617 - 1.450ms returns 1 (0x1)
T5854 87689:434.631 JLINK_GetDebugInfo(0x10F = JLINKARM_DEBUG_INFO_HAS_CORTEX_M_SECURITY_EXT_INDEX)
T5854 87689:434.640   Value=0x00000000
T5854 87689:434.651 - 0.024ms returns 0
T5854 87689:434.662 JLINK_HasError()
T5854 87689:434.677 JLINK_SetResetType(JLINKARM_CM3_RESET_TYPE_NORMAL)
T5854 87689:434.685 - 0.012ms returns JLINKARM_CM3_RESET_TYPE_NORMAL
T5854 87689:434.697 JLINK_Reset()
T5854 87689:434.710   CPU is running
T5854 87689:434.724   CPU_WriteMem(4 bytes @ 0xE000EDF0)
T5854 87689:436.106   CPU is running
T5854 87689:436.131   CPU_WriteMem(4 bytes @ 0xE000EDFC)
T5854 87689:437.516   Reset: Halt core after reset via DEMCR.VC_CORERESET.
T5854 87689:438.488   Reset: Reset device via AIRCR.SYSRESETREQ.
T5854 87689:438.507   CPU is running
T5854 87689:438.520   CPU_WriteMem(4 bytes @ 0xE000ED0C)
T5854 87689:493.596   CPU_ReadMem(4 bytes @ 0xE000EDF0)
T5854 87689:495.050   CPU_ReadMem(4 bytes @ 0xE000EDF0)
T5854 87689:496.426   CPU is running
T5854 87689:496.445   CPU_WriteMem(4 bytes @ 0xE000EDF0)
T5854 87689:497.804   CPU is running
T5854 87689:497.823   CPU_WriteMem(4 bytes @ 0xE000EDFC)
T5854 87689:505.357   CPU_ReadMem(4 bytes @ 0xE000EDF0)
T5854 87689:525.454   CPU_WriteMem(4 bytes @ 0xE0002000)
T5854 87689:527.081   CPU_ReadMem(4 bytes @ 0xE000EDFC)
T5854 87689:528.517   CPU_ReadMem(4 bytes @ 0xE0001000)
T5854 87689:530.248 - 95.619ms
T5854 87689:530.340 JLINK_HasError()
T5854 87689:530.361 JLINK_ReadReg(R15 (PC))
T5854 87689:530.373 - 0.016ms returns 0x08000144
T5854 87689:530.385 JLINK_ReadReg(XPSR)
T5854 87689:530.393 - 0.012ms returns 0x01000000
T5854 87689:530.406 JLINK_Halt()
T5854 87689:530.414 - 0.013ms returns 0x00
T5854 87689:530.428 JLINK_ReadMemU32(0xE000EDF0, 0x1 Items)
T5854 87689:530.440   CPU_ReadMem(4 bytes @ 0xE000EDF0)
T5854 87689:531.810   Data:  03 00 03 00
T5854 87689:531.837   Debug reg: DHCSR
T5854 87689:531.850 - 1.427ms returns 1 (0x1)
T5854 87689:531.875 JLINK_WriteU32_64(0xE000EDF0, 0xA05F0003)
T5854 87689:531.885   Debug reg: DHCSR
T5854 87689:532.113   CPU_WriteMem(4 bytes @ 0xE000EDF0)
T5854 87689:533.590 - 1.728ms returns 0 (0x00000000)
T5854 87689:533.621 JLINK_WriteU32_64(0xE000EDFC, 0x01000000)
T5854 87689:533.631   Debug reg: DEMCR
T5854 87689:533.649   CPU_WriteMem(4 bytes @ 0xE000EDFC)
T5854 87689:535.064 - 1.452ms returns 0 (0x00000000)
T5854 87689:535.119 JLINK_GetHWStatus(...)
T5854 87689:535.585 - 0.476ms returns 0
T5854 87689:535.629 JLINK_GetNumBPUnits(Type = 0xFFFFFF00)
T5854 87689:535.640 - 0.015ms returns 0x06
T5854 87689:535.652 JLINK_GetNumBPUnits(Type = 0xF0)
T5854 87689:535.660 - 0.012ms returns 0x2000
T5854 87689:535.673 JLINK_GetNumWPUnits()
T5854 87689:535.681 - 0.012ms returns 4
T5854 87689:535.783 JLINK_GetSpeed()
T5854 87689:535.797 - 0.018ms returns 500
T5854 87689:535.820 JLINK_ReadMemU32(0xE000E004, 0x1 Items)
T5854 87689:535.838   CPU_ReadMem(4 bytes @ 0xE000E004)
T5854 87689:537.270   Data:  01 00 00 00
T5854 87689:537.288 - 1.472ms returns 1 (0x1)
T5854 87689:537.301 JLINK_ReadMemU32(0xE000E004, 0x1 Items)
T5854 87689:537.313   CPU_ReadMem(4 bytes @ 0xE000E004)
T5854 87689:538.775   Data:  01 00 00 00
T5854 87689:538.794 - 1.497ms returns 1 (0x1)
T5854 87689:538.817 JLINK_WriteMemEx(0xE0001000, 0x0000001C Bytes, Flags = 0x02000004)
T5854 87689:538.827   Data:  01 00 00 00 00 00 00 00 00 00 00 00 00 00 00 00 ...
T5854 87689:538.844   CPU_WriteMem(28 bytes @ 0xE0001000)
T5854 87689:541.245 - 2.437ms returns 0x1C
T5854 87689:541.269 JLINK_HasError()
T5854 87689:541.281 JLINK_ReadReg(R15 (PC))
T5854 87689:541.292 - 0.015ms returns 0x08000144
T5854 87689:541.303 JLINK_ReadReg(XPSR)
T5854 87689:541.311 - 0.012ms returns 0x01000000
T5854 87689:625.738 JLINK_HasError()
T5854 87689:625.771 JLINK_SetResetType(JLINKARM_CM3_RESET_TYPE_NORMAL)
T5854 87689:625.781 - 0.013ms returns JLINKARM_CM3_RESET_TYPE_NORMAL
T5854 87689:625.791 JLINK_Reset()
T5854 87689:625.808   CPU_WriteMem(4 bytes @ 0xE000EDF0)
T5854 87689:627.048   CPU_WriteMem(4 bytes @ 0xE000EDFC)
T5854 87689:628.467   Reset: Halt core after reset via DEMCR.VC_CORERESET.
T5854 87689:629.267   Reset: Reset device via AIRCR.SYSRESETREQ.
T5854 87689:629.287   CPU_WriteMem(4 bytes @ 0xE000ED0C)
T5854 87689:682.908   CPU_ReadMem(4 bytes @ 0xE000EDF0)
T5854 87689:684.383   CPU_ReadMem(4 bytes @ 0xE000EDF0)
T5854 87689:685.848   CPU_WriteMem(4 bytes @ 0xE000EDF0)
T5854 87689:687.183   CPU_WriteMem(4 bytes @ 0xE000EDFC)
T5854 87689:693.828   CPU_ReadMem(4 bytes @ 0xE000EDF0)
T5854 87689:714.396   CPU_WriteMem(4 bytes @ 0xE0002000)
T5854 87689:716.006   CPU_ReadMem(4 bytes @ 0xE000EDFC)
T5854 87689:717.391   CPU_ReadMem(4 bytes @ 0xE0001000)
T5854 87689:718.771 - 92.992ms
T5854 87689:718.821 JLINK_HasError()
T5854 87689:718.834 JLINK_ReadReg(R15 (PC))
T5854 87689:718.846 - 0.015ms returns 0x08000144
T5854 87689:718.858 JLINK_ReadReg(XPSR)
T5854 87689:718.867 - 0.012ms returns 0x01000000
T5854 87689:719.268 JLINK_ReadMemEx(0x08000144, 0x3C Bytes, Flags = 0x02000000)
T5854 87689:719.293   CPU_ReadMem(64 bytes @ 0x08000140)
T5854 87689:723.068    -- Updating C cache (64 bytes @ 0x08000140)
T5854 87689:723.087    -- Read from C cache (60 bytes @ 0x08000144)
T5854 87689:723.100   Data:  06 48 80 47 06 48 00 47 FE E7 FE E7 FE E7 FE E7 ...
T5854 87689:723.112 - 3.848ms returns 60 (0x3C)
T5854 87692:102.542 JLINK_HasError()
T5854 87692:102.578 JLINK_ReadReg(R0)
T5854 87692:104.005 - 1.439ms returns 0x00000000
T5854 87692:104.029 JLINK_ReadReg(R1)
T5854 87692:104.043 - 0.018ms returns 0x00000041
T5854 87692:104.054 JLINK_ReadReg(R2)
T5854 87692:104.063 - 0.013ms returns 0x200007F6
T5854 87692:104.074 JLINK_ReadReg(R3)
T5854 87692:104.083 - 0.013ms returns 0x00000000
T5854 87692:104.094 JLINK_ReadReg(R4)
T5854 87692:104.102 - 0.012ms returns 0x08003898
T5854 87692:104.113 JLINK_ReadReg(R5)
T5854 87692:104.122 - 0.012ms returns 0x08003898
T5854 87692:104.132 JLINK_ReadReg(R6)
T5854 87692:104.141 - 0.013ms returns 0x00000000
T5854 87692:104.153 JLINK_ReadReg(R7)
T5854 87692:104.162 - 0.012ms returns 0x00000000
T5854 87692:104.173 JLINK_ReadReg(R8)
T5854 87692:104.182 - 0.013ms returns 0x00000000
T5854 87692:104.192 JLINK_ReadReg(R9)
T5854 87692:104.201 - 0.013ms returns 0x20000160
T5854 87692:104.212 JLINK_ReadReg(R10)
T5854 87692:104.221 - 0.013ms returns 0x00000000
T5854 87692:104.231 JLINK_ReadReg(R11)
T5854 87692:104.240 - 0.013ms returns 0x00000000
T5854 87692:104.251 JLINK_ReadReg(R12)
T5854 87692:104.259 - 0.013ms returns 0x00000F00
T5854 87692:104.272 JLINK_ReadReg(R13 (SP))
T5854 87692:104.282 - 0.013ms returns 0x20000C60
T5854 87692:104.292 JLINK_ReadReg(R14)
T5854 87692:104.301 - 0.012ms returns 0xFFFFFFFF
T5854 87692:104.311 JLINK_ReadReg(R15 (PC))
T5854 87692:104.320 - 0.013ms returns 0x08000144
T5854 87692:104.331 JLINK_ReadReg(XPSR)
T5854 87692:104.340 - 0.013ms returns 0x01000000
T5854 87692:104.350 JLINK_ReadReg(MSP)
T5854 87692:104.360 - 0.013ms returns 0x20000C60
T5854 87692:104.370 JLINK_ReadReg(PSP)
T5854 87692:104.379 - 0.017ms returns 0x20001000
T5854 87692:104.395 JLINK_ReadReg(CFBP)
T5854 87692:104.404 - 0.013ms returns 0x00000000
T6018 87692:165.740 JLINK_ReadMemEx(0x08000144, 0x2 Bytes, Flags = 0x02000000)
T6018 87692:165.772    -- Read from C cache (2 bytes @ 0x08000144)
T6018 87692:165.786   Data:  06 48
T6018 87692:165.799 - 0.063ms returns 2 (0x2)
T6018 87692:165.811 JLINK_HasError()
T6018 87692:165.831 JLINK_SetBPEx(Addr = 0x08002C8E, Type = 0xFFFFFFF2)
T6018 87692:165.843 - 0.016ms returns 0x00000001
T6018 87692:165.858 JLINK_HasError()
T6018 87692:165.869 JLINK_HasError()
T6018 87692:165.882 JLINK_Go()
T6018 87692:165.923   CPU_WriteMem(4 bytes @ 0xE0002000)
T6018 87692:167.339   CPU_ReadMem(4 bytes @ 0xE0001000)
T6018 87692:168.693   CPU_WriteMem(4 bytes @ 0xE0002008)
T6018 87692:168.712   CPU_WriteMem(4 bytes @ 0xE000200C)
T6018 87692:168.724   CPU_WriteMem(4 bytes @ 0xE0002010)
T6018 87692:168.737   CPU_WriteMem(4 bytes @ 0xE0002014)
T6018 87692:168.750   CPU_WriteMem(4 bytes @ 0xE0002018)
T6018 87692:168.762   CPU_WriteMem(4 bytes @ 0xE000201C)
T6018 87692:175.345   CPU_WriteMem(4 bytes @ 0xE0001004)
T6018 87692:178.927 - 13.058ms
T6018 87692:279.199 JLINK_HasError()
T6018 87692:279.268 JLINK_IsHalted()
T6018 87692:297.538 - 18.298ms returns TRUE
T6018 87692:297.585 JLINK_HasError()
T6018 87692:297.612 JLINK_Halt()
T6018 87692:297.626 - 0.019ms returns 0x00
T6018 87692:297.645 JLINK_IsHalted()
T6018 87692:297.658 - 0.018ms returns TRUE
T6018 87692:297.677 JLINK_IsHalted()
T6018 87692:297.692 - 0.021ms returns TRUE
T6018 87692:297.710 JLINK_IsHalted()
T6018 87692:297.837 - 0.134ms returns TRUE
T6018 87692:297.858 JLINK_HasError()
T6018 87692:297.877 JLINK_ReadReg(R15 (PC))
T6018 87692:297.895 - 0.025ms returns 0x08002C8E
T6018 87692:297.917 JLINK_ReadReg(XPSR)
T6018 87692:297.932 - 0.020ms returns 0x61000000
T6018 87692:300.713 JLINK_HasError()
T6018 87692:300.795 JLINK_ClrBPEx(BPHandle = 0x00000001)
T6018 87692:300.818 - 0.029ms returns 0x00
T6018 87692:300.836 JLINK_HasError()
T6018 87692:300.852 JLINK_HasError()
T6018 87692:300.869 JLINK_ReadMemU32(0xE000ED30, 0x1 Items)
T6018 87692:300.912   CPU_ReadMem(4 bytes @ 0xE000ED30)
T6018 87692:302.220   Data:  02 00 00 00
T6018 87692:302.242 - 1.378ms returns 1 (0x1)
T6018 87692:302.256 JLINK_ReadMemU32(0xE0001028, 0x1 Items)
T6018 87692:302.270   CPU_ReadMem(4 bytes @ 0xE0001028)
T6018 87692:303.698   Data:  00 00 00 00
T6018 87692:303.718   Debug reg: DWT_FUNC[0]
T6018 87692:303.730 - 1.478ms returns 1 (0x1)
T6018 87692:303.743 JLINK_ReadMemU32(0xE0001038, 0x1 Items)
T6018 87692:303.755   CPU_ReadMem(4 bytes @ 0xE0001038)
T6018 87692:305.049   Data:  00 02 00 00
T6018 87692:305.077   Debug reg: DWT_FUNC[1]
T6018 87692:305.090 - 1.350ms returns 1 (0x1)
T6018 87692:305.103 JLINK_ReadMemU32(0xE0001048, 0x1 Items)
T6018 87692:305.116   CPU_ReadMem(4 bytes @ 0xE0001048)
T6018 87692:306.481   Data:  00 00 00 00
T6018 87692:306.503   Debug reg: DWT_FUNC[2]
T6018 87692:306.516 - 1.416ms returns 1 (0x1)
T6018 87692:306.529 JLINK_ReadMemU32(0xE0001058, 0x1 Items)
T6018 87692:306.544   CPU_ReadMem(4 bytes @ 0xE0001058)
T6018 87692:307.934   Data:  00 00 00 00
T6018 87692:307.955   Debug reg: DWT_FUNC[3]
T6018 87692:307.967 - 1.442ms returns 1 (0x1)
T6018 87692:308.011 JLINK_HasError()
T6018 87692:308.024 JLINK_ReadReg(R0)
T6018 87692:308.036 - 0.016ms returns 0x08002C8F
T6018 87692:308.047 JLINK_ReadReg(R1)
T6018 87692:308.057 - 0.013ms returns 0x20000C60
T6018 87692:308.067 JLINK_ReadReg(R2)
T6018 87692:308.076 - 0.013ms returns 0x00000000
T6018 87692:308.087 JLINK_ReadReg(R3)
T6018 87692:308.095 - 0.012ms returns 0x08002C81
T6018 87692:308.106 JLINK_ReadReg(R4)
T6018 87692:308.115 - 0.012ms returns 0x08003898
T6018 87692:308.125 JLINK_ReadReg(R5)
T6018 87692:308.134 - 0.013ms returns 0x08003898
T6018 87692:308.145 JLINK_ReadReg(R6)
T6018 87692:308.153 - 0.012ms returns 0x00000000
T6018 87692:308.165 JLINK_ReadReg(R7)
T6018 87692:308.173 - 0.012ms returns 0x00000000
T6018 87692:308.184 JLINK_ReadReg(R8)
T6018 87692:308.193 - 0.012ms returns 0x00000000
T6018 87692:308.203 JLINK_ReadReg(R9)
T6018 87692:308.212 - 0.013ms returns 0x20000160
T6018 87692:308.225 JLINK_ReadReg(R10)
T6018 87692:308.233 - 0.012ms returns 0x00000000
T6018 87692:308.244 JLINK_ReadReg(R11)
T6018 87692:308.252 - 0.012ms returns 0x00000000
T6018 87692:308.263 JLINK_ReadReg(R12)
T6018 87692:308.271 - 0.013ms returns 0x00000F00
T6018 87692:308.282 JLINK_ReadReg(R13 (SP))
T6018 87692:308.291 - 0.013ms returns 0x20000C60
T6018 87692:308.302 JLINK_ReadReg(R14)
T6018 87692:308.310 - 0.012ms returns 0x080001A9
T6018 87692:308.321 JLINK_ReadReg(R15 (PC))
T6018 87692:308.329 - 0.012ms returns 0x08002C8E
T6018 87692:308.340 JLINK_ReadReg(XPSR)
T6018 87692:308.348 - 0.013ms returns 0x61000000
T6018 87692:308.359 JLINK_ReadReg(MSP)
T6018 87692:308.368 - 0.012ms returns 0x20000C60
T6018 87692:308.378 JLINK_ReadReg(PSP)
T6018 87692:308.387 - 0.012ms returns 0x20001000
T6018 87692:308.397 JLINK_ReadReg(CFBP)
T6018 87692:308.406 - 0.012ms returns 0x00000000
T6018 87695:266.399 JLINK_ReadMemEx(0x08002C8E, 0x2 Bytes, Flags = 0x02000000)
T6018 87695:266.437   CPU_ReadMem(64 bytes @ 0x08002C80)
T6018 87695:270.188    -- Updating C cache (64 bytes @ 0x08002C80)
T6018 87695:270.209    -- Read from C cache (2 bytes @ 0x08002C8E)
T6018 87695:270.224   Data:  FE F7
T6018 87695:270.237 - 3.842ms returns 2 (0x2)
T6018 87695:270.250 JLINK_HasError()
T6018 87695:270.261 JLINK_HasError()
T6018 87695:270.272 JLINK_Go()
T6018 87695:272.012   CPU_ReadMem(4 bytes @ 0xE0001000)
T6018 87695:273.545   CPU_WriteMem(4 bytes @ 0xE0002008)
T6018 87695:277.860 - 7.611ms
T6018 87695:377.965 JLINK_HasError()
T6018 87695:378.051 JLINK_IsHalted()
T6018 87695:379.471 - 1.431ms returns FALSE
T6018 87695:479.705 JLINK_HasError()
T6018 87695:479.731 JLINK_IsHalted()
T6018 87695:481.125 - 1.404ms returns FALSE
T6018 87695:581.418 JLINK_HasError()
T6018 87695:581.444 JLINK_IsHalted()
T6018 87695:582.933 - 1.500ms returns FALSE
T6018 87695:683.188 JLINK_HasError()
T6018 87695:683.213 JLINK_IsHalted()
T6018 87695:684.748 - 1.551ms returns FALSE
T6018 87695:784.910 JLINK_HasError()
T6018 87695:784.942 JLINK_IsHalted()
T6018 87695:786.440 - 1.508ms returns FALSE
T6018 87695:886.747 JLINK_HasError()
T6018 87695:886.781 JLINK_HasError()
T6018 87695:886.793 JLINK_ReadMemU32(0xE0001004, 0x1 Items)
T6018 87695:886.811   CPU_ReadMem(4 bytes @ 0xE0001004)
T6018 87695:888.198   Data:  69 8B 4A 00
T6018 87695:888.231   Debug reg: DWT_CYCCNT
T6018 87695:888.243 - 1.455ms returns 1 (0x1)
T6018 87695:889.055 JLINK_IsHalted()
T6018 87695:890.644 - 1.599ms returns FALSE
T6018 87695:991.691 JLINK_HasError()
T6018 87695:991.723 JLINK_IsHalted()
T6018 87695:993.483 - 1.791ms returns FALSE
T6018 87696:094.316 JLINK_HasError()
T6018 87696:094.351 JLINK_IsHalted()
T6018 87696:095.992 - 1.654ms returns FALSE
T6018 87696:196.937 JLINK_HasError()
T6018 87696:196.979 JLINK_IsHalted()
T6018 87696:198.576 - 1.620ms returns FALSE
T6018 87696:298.774 JLINK_HasError()
T6018 87696:298.809 JLINK_IsHalted()
T6018 87696:300.355 - 1.569ms returns FALSE
T6018 87696:400.504 JLINK_HasError()
T6018 87696:400.539 JLINK_HasError()
T6018 87696:400.550 JLINK_ReadMemU32(0xE0001004, 0x1 Items)
T6018 87696:400.567   Data:  69 8B 4A 00
T6018 87696:400.580   Debug reg: DWT_CYCCNT
T6018 87696:400.592 - 0.046ms returns 1 (0x1)
T6018 87696:400.781 JLINK_IsHalted()
T6018 87696:402.542 - 1.798ms returns FALSE
T6018 87696:503.247 JLINK_HasError()
T6018 87696:503.281 JLINK_IsHalted()
T6018 87696:505.050 - 1.796ms returns FALSE
T6018 87696:605.694 JLINK_HasError()
T6018 87696:605.729 JLINK_IsHalted()
T6018 87696:607.191 - 1.481ms returns FALSE
T6018 87696:707.493 JLINK_HasError()
T6018 87696:707.565 JLINK_IsHalted()
T6018 87696:709.315 - 1.774ms returns FALSE
T6018 87696:810.178 JLINK_HasError()
T6018 87696:810.216 JLINK_IsHalted()
T6018 87696:811.743 - 1.536ms returns FALSE
T6018 87696:912.660 JLINK_HasError()
T6018 87696:912.688 JLINK_IsHalted()
T6018 87696:914.229 - 1.553ms returns FALSE
T6018 87697:014.402 JLINK_HasError()
T6018 87697:014.428 JLINK_HasError()
T6018 87697:014.439 JLINK_ReadMemU32(0xE0001004, 0x1 Items)
T6018 87697:014.456   Data:  69 8B 4A 00
T6018 87697:014.469   Debug reg: DWT_CYCCNT
T6018 87697:014.482 - 0.046ms returns 1 (0x1)
T6018 87697:014.670 JLINK_IsHalted()
T6018 87697:016.206 - 1.546ms returns FALSE
T6018 87697:117.129 JLINK_HasError()
T6018 87697:117.157 JLINK_IsHalted()
T6018 87697:118.661 - 1.514ms returns FALSE
T6018 87697:218.781 JLINK_HasError()
T6018 87697:218.810 JLINK_IsHalted()
T6018 87697:220.281 - 1.482ms returns FALSE
T6018 87697:320.706 JLINK_HasError()
T6018 87697:320.762 JLINK_IsHalted()
T6018 87697:322.308 - 1.561ms returns FALSE
T6018 87697:423.026 JLINK_HasError()
T6018 87697:423.058 JLINK_IsHalted()
T6018 87697:424.436 - 1.387ms returns FALSE
T6018 87697:525.397 JLINK_HasError()
T6018 87697:525.428 JLINK_HasError()
T6018 87697:525.439 JLINK_ReadMemU32(0xE0001004, 0x1 Items)
T6018 87697:525.486   Data:  69 8B 4A 00
T6018 87697:525.516   Debug reg: DWT_CYCCNT
T6018 87697:525.527 - 0.092ms returns 1 (0x1)
T6018 87697:526.082 JLINK_IsHalted()
T6018 87697:527.582 - 1.513ms returns FALSE
T6018 87697:628.254 JLINK_HasError()
T6018 87697:628.288 JLINK_IsHalted()
T6018 87697:630.061 - 1.796ms returns FALSE
T6018 87697:730.948 JLINK_HasError()
T6018 87697:730.978 JLINK_IsHalted()
T6018 87697:732.513 - 1.547ms returns FALSE
T6018 87697:833.293 JLINK_HasError()
T6018 87697:833.325 JLINK_IsHalted()
T6018 87697:834.885 - 1.571ms returns FALSE
T6018 87697:935.867 JLINK_HasError()
T6018 87697:935.931 JLINK_IsHalted()
T6018 87697:937.391 - 1.478ms returns FALSE
T6018 87698:038.217 JLINK_HasError()
T6018 87698:038.249 JLINK_IsHalted()
T6018 87698:039.808 - 1.574ms returns FALSE
T6018 87698:139.938 JLINK_HasError()
T6018 87698:139.978 JLINK_HasError()
T6018 87698:139.989 JLINK_ReadMemU32(0xE0001004, 0x1 Items)
T6018 87698:140.007   Data:  69 8B 4A 00
T6018 87698:140.020   Debug reg: DWT_CYCCNT
T6018 87698:140.032 - 0.047ms returns 1 (0x1)
T6018 87698:140.224 JLINK_IsHalted()
T6018 87698:141.676 - 1.461ms returns FALSE
T6018 87698:242.259 JLINK_HasError()
T6018 87698:242.292 JLINK_IsHalted()
T6018 87698:243.810 - 1.531ms returns FALSE
T6018 87698:343.946 JLINK_HasError()
T6018 87698:343.978 JLINK_IsHalted()
T6018 87698:345.348 - 1.379ms returns FALSE
T6018 87698:445.418 JLINK_HasError()
T6018 87698:445.450 JLINK_IsHalted()
T6018 87698:446.965 - 1.527ms returns FALSE
T6018 87698:547.491 JLINK_HasError()
T6018 87698:547.532 JLINK_IsHalted()
T6018 87698:549.315 - 1.819ms returns FALSE
T6018 87698:649.932 JLINK_HasError()
T6018 87698:649.966 JLINK_HasError()
T6018 87698:649.978 JLINK_ReadMemU32(0xE0001004, 0x1 Items)
T6018 87698:649.995   Data:  69 8B 4A 00
T6018 87698:650.010   Debug reg: DWT_CYCCNT
T6018 87698:650.032 - 0.058ms returns 1 (0x1)
T6018 87698:650.138 JLINK_IsHalted()
T6018 87698:651.539 - 1.414ms returns FALSE
T6018 87698:752.283 JLINK_HasError()
T6018 87698:752.319 JLINK_IsHalted()
T6018 87698:753.830 - 1.537ms returns FALSE
T6018 87698:854.029 JLINK_HasError()
T6018 87698:854.080 JLINK_IsHalted()
T6018 87698:855.581 - 1.521ms returns FALSE
T5854 87698:899.257 JLINK_ReadMemEx(0x40001000, 0x4 Bytes, Flags = 0x02000000)
T5854 87698:899.294   CPU_ReadMem(4 bytes @ 0x40001000)
T5854 87698:900.601   Data:  81 00 00 00
T5854 87698:900.622 - 1.370ms returns 4 (0x4)
T5854 87698:900.647 JLINK_ReadMemEx(0x40001004, 0x4 Bytes, Flags = 0x02000000)
T5854 87698:900.661   CPU_ReadMem(4 bytes @ 0x40001004)
T5854 87698:902.005   Data:  20 00 00 00
T5854 87698:902.026 - 1.382ms returns 4 (0x4)
T5854 87698:902.048 JLINK_ReadMemEx(0x40001008, 0x4 Bytes, Flags = 0x02000000)
T5854 87698:902.062   CPU_ReadMem(4 bytes @ 0x40001008)
T5854 87698:903.309   Data:  00 00 00 00
T5854 87698:903.329 - 1.285ms returns 4 (0x4)
T5854 87698:903.385 JLINK_ReadMemEx(0x4000100C, 0x4 Bytes, Flags = 0x02000000)
T5854 87698:903.404   CPU_ReadMem(4 bytes @ 0x4000100C)
T5854 87698:904.654   Data:  01 00 00 00
T5854 87698:904.675 - 1.294ms returns 4 (0x4)
T5854 87698:904.695 JLINK_ReadMemEx(0x40001010, 0x4 Bytes, Flags = 0x02000000)
T5854 87698:904.709   CPU_ReadMem(4 bytes @ 0x40001010)
T5854 87698:905.989   Data:  00 00 00 00
T5854 87698:906.008 - 1.316ms returns 4 (0x4)
T5854 87698:906.027 JLINK_ReadMemEx(0x40001014, 0x4 Bytes, Flags = 0x02000000)
T5854 87698:906.042   CPU_ReadMem(4 bytes @ 0x40001014)
T5854 87698:907.326   Data:  00 00 00 00
T5854 87698:907.349 - 1.325ms returns 4 (0x4)
T5854 87698:907.369 JLINK_ReadMemEx(0x40001018, 0x4 Bytes, Flags = 0x02000000)
T5854 87698:907.382   CPU_ReadMem(4 bytes @ 0x40001018)
T5854 87698:908.651   Data:  00 00 00 00
T5854 87698:908.670 - 1.305ms returns 4 (0x4)
T5854 87698:908.691 JLINK_ReadMemEx(0x4000101C, 0x4 Bytes, Flags = 0x02000000)
T5854 87698:908.704   CPU_ReadMem(4 bytes @ 0x4000101C)
T5854 87698:910.005   Data:  00 00 00 00
T5854 87698:910.030 - 1.343ms returns 4 (0x4)
T5854 87698:910.050 JLINK_ReadMemEx(0x40001020, 0x4 Bytes, Flags = 0x02000000)
T5854 87698:910.063   CPU_ReadMem(4 bytes @ 0x40001020)
T5854 87698:911.406   Data:  00 00 00 00
T5854 87698:911.430 - 1.384ms returns 4 (0x4)
T5854 87698:911.449 JLINK_ReadMemEx(0x40001024, 0x4 Bytes, Flags = 0x02000000)
T5854 87698:911.461   CPU_ReadMem(4 bytes @ 0x40001024)
T5854 87698:912.723   Data:  5D 00 00 00
T5854 87698:912.741 - 1.296ms returns 4 (0x4)
T5854 87698:912.759 JLINK_ReadMemEx(0x40001028, 0x4 Bytes, Flags = 0x02000000)
T5854 87698:912.771   CPU_ReadMem(4 bytes @ 0x40001028)
T5854 87698:914.031   Data:  08 00 00 00
T5854 87698:914.055 - 1.300ms returns 4 (0x4)
T5854 87698:914.073 JLINK_ReadMemEx(0x4000102C, 0x4 Bytes, Flags = 0x02000000)
T5854 87698:914.085   CPU_ReadMem(4 bytes @ 0x4000102C)
T5854 87698:915.403   Data:  64 00 00 00
T5854 87698:915.422 - 1.354ms returns 4 (0x4)
T5854 87698:915.441 JLINK_ReadMemEx(0x40001030, 0x4 Bytes, Flags = 0x02000000)
T5854 87698:915.454   CPU_ReadMem(4 bytes @ 0x40001030)
T5854 87698:916.694   Data:  00 00 00 00
T5854 87698:916.711 - 1.274ms returns 4 (0x4)
T5854 87698:916.729 JLINK_ReadMemEx(0x40001034, 0x4 Bytes, Flags = 0x02000000)
T5854 87698:916.742   CPU_ReadMem(4 bytes @ 0x40001034)
T5854 87698:917.941   Data:  00 00 00 00
T5854 87698:917.958 - 1.233ms returns 4 (0x4)
T5854 87698:917.976 JLINK_ReadMemEx(0x40001038, 0x4 Bytes, Flags = 0x02000000)
T5854 87698:917.988   CPU_ReadMem(4 bytes @ 0x40001038)
T5854 87698:919.274   Data:  00 00 00 00
T5854 87698:919.291 - 1.319ms returns 4 (0x4)
T5854 87698:919.313 JLINK_ReadMemEx(0x4000103C, 0x4 Bytes, Flags = 0x02000000)
T5854 87698:919.325   CPU_ReadMem(4 bytes @ 0x4000103C)
T5854 87698:920.590   Data:  00 00 00 00
T5854 87698:920.608 - 1.299ms returns 4 (0x4)
T5854 87698:920.625 JLINK_ReadMemEx(0x40001040, 0x4 Bytes, Flags = 0x02000000)
T5854 87698:920.637   CPU_ReadMem(4 bytes @ 0x40001040)
T5854 87698:921.911   Data:  00 00 00 00
T5854 87698:921.935 - 1.315ms returns 4 (0x4)
T5854 87698:921.957 JLINK_ReadMemEx(0x40001044, 0x4 Bytes, Flags = 0x02000000)
T5854 87698:921.971   CPU_ReadMem(4 bytes @ 0x40001044)
T5854 87698:923.278   Data:  00 00 00 00
T5854 87698:923.308 - 1.355ms returns 4 (0x4)
T5854 87698:923.328 JLINK_ReadMemEx(0x40001048, 0x4 Bytes, Flags = 0x02000000)
T5854 87698:923.342   CPU_ReadMem(4 bytes @ 0x40001048)
T5854 87698:924.587   Data:  00 00 00 00
T5854 87698:924.606 - 1.281ms returns 4 (0x4)
T5854 87698:924.623 JLINK_ReadMemEx(0x4000104C, 0x4 Bytes, Flags = 0x02000000)
T5854 87698:924.636   CPU_ReadMem(4 bytes @ 0x4000104C)
T5854 87698:925.907   Data:  00 00 00 00
T5854 87698:925.927 - 1.307ms returns 4 (0x4)
T5854 87698:925.946 JLINK_ReadMemEx(0x40001050, 0x4 Bytes, Flags = 0x02000000)
T5854 87698:925.959   CPU_ReadMem(4 bytes @ 0x40001050)
T5854 87698:927.275   Data:  00 00 00 00
T5854 87698:927.295 - 1.353ms returns 4 (0x4)
T5854 87698:927.322 JLINK_ReadMemEx(0x40001000, 0x4 Bytes, Flags = 0x02000000)
T5854 87698:927.336   CPU_ReadMem(4 bytes @ 0x40001000)
T5854 87698:928.597   Data:  81 00 00 00
T5854 87698:928.614 - 1.296ms returns 4 (0x4)
T5854 87698:928.630 JLINK_ReadMemEx(0x40001004, 0x4 Bytes, Flags = 0x02000000)
T5854 87698:928.642   CPU_ReadMem(4 bytes @ 0x40001004)
T5854 87698:929.906   Data:  20 00 00 00
T5854 87698:929.923 - 1.297ms returns 4 (0x4)
T5854 87698:929.944 JLINK_ReadMemEx(0x40001008, 0x4 Bytes, Flags = 0x02000000)
T5854 87698:929.957   CPU_ReadMem(4 bytes @ 0x40001008)
T5854 87698:931.282   Data:  00 00 00 00
T5854 87698:931.299 - 1.358ms returns 4 (0x4)
T5854 87698:931.316 JLINK_ReadMemEx(0x4000100C, 0x4 Bytes, Flags = 0x02000000)
T5854 87698:931.327   CPU_ReadMem(4 bytes @ 0x4000100C)
T5854 87698:932.589   Data:  01 00 00 00
T5854 87698:932.605 - 1.293ms returns 4 (0x4)
T5854 87698:932.622 JLINK_ReadMemEx(0x40001010, 0x4 Bytes, Flags = 0x02000000)
T5854 87698:932.635   CPU_ReadMem(4 bytes @ 0x40001010)
T5854 87698:933.899   Data:  00 00 00 00
T5854 87698:933.920 - 1.303ms returns 4 (0x4)
T5854 87698:933.938 JLINK_ReadMemEx(0x40001014, 0x4 Bytes, Flags = 0x02000000)
T5854 87698:933.951   CPU_ReadMem(4 bytes @ 0x40001014)
T5854 87698:935.194   Data:  00 00 00 00
T5854 87698:935.213 - 1.278ms returns 4 (0x4)
T5854 87698:935.231 JLINK_ReadMemEx(0x40001018, 0x4 Bytes, Flags = 0x02000000)
T5854 87698:935.244   CPU_ReadMem(4 bytes @ 0x40001018)
T5854 87698:936.577   Data:  00 00 00 00
T5854 87698:936.595 - 1.369ms returns 4 (0x4)
T5854 87698:936.614 JLINK_ReadMemEx(0x4000101C, 0x4 Bytes, Flags = 0x02000000)
T5854 87698:936.627   CPU_ReadMem(4 bytes @ 0x4000101C)
T5854 87698:937.939   Data:  00 00 00 00
T5854 87698:937.963 - 1.397ms returns 4 (0x4)
T5854 87698:938.028 JLINK_ReadMemEx(0x40001020, 0x4 Bytes, Flags = 0x02000000)
T5854 87698:938.042   CPU_ReadMem(4 bytes @ 0x40001020)
T5854 87698:939.435   Data:  00 00 00 00
T5854 87698:939.454 - 1.430ms returns 4 (0x4)
T5854 87698:939.474 JLINK_ReadMemEx(0x40001024, 0x4 Bytes, Flags = 0x02000000)
T5854 87698:939.488   CPU_ReadMem(4 bytes @ 0x40001024)
T5854 87698:940.887   Data:  48 00 00 00
T5854 87698:940.906 - 1.436ms returns 4 (0x4)
T5854 87698:940.989 JLINK_ReadMemEx(0x40001028, 0x4 Bytes, Flags = 0x02000000)
T5854 87698:941.009   CPU_ReadMem(4 bytes @ 0x40001028)
T5854 87698:942.455   Data:  08 00 00 00
T5854 87698:942.474 - 1.489ms returns 4 (0x4)
T5854 87698:942.491 JLINK_ReadMemEx(0x4000102C, 0x4 Bytes, Flags = 0x02000000)
T5854 87698:942.504   CPU_ReadMem(4 bytes @ 0x4000102C)
T5854 87698:943.893   Data:  64 00 00 00
T5854 87698:943.912 - 1.426ms returns 4 (0x4)
T5854 87698:943.930 JLINK_ReadMemEx(0x40001030, 0x4 Bytes, Flags = 0x02000000)
T5854 87698:943.943   CPU_ReadMem(4 bytes @ 0x40001030)
T5854 87698:945.314   Data:  00 00 00 00
T5854 87698:945.336 - 1.410ms returns 4 (0x4)
T5854 87698:945.352 JLINK_ReadMemEx(0x40001034, 0x4 Bytes, Flags = 0x02000000)
T5854 87698:945.365   CPU_ReadMem(4 bytes @ 0x40001034)
T5854 87698:946.712   Data:  00 00 00 00
T5854 87698:946.731 - 1.383ms returns 4 (0x4)
T5854 87698:946.747 JLINK_ReadMemEx(0x40001038, 0x4 Bytes, Flags = 0x02000000)
T5854 87698:946.759   CPU_ReadMem(4 bytes @ 0x40001038)
T5854 87698:948.108   Data:  00 00 00 00
T5854 87698:948.128 - 1.386ms returns 4 (0x4)
T5854 87698:948.145 JLINK_ReadMemEx(0x4000103C, 0x4 Bytes, Flags = 0x02000000)
T5854 87698:948.157   CPU_ReadMem(4 bytes @ 0x4000103C)
T5854 87698:949.526   Data:  00 00 00 00
T5854 87698:949.545 - 1.405ms returns 4 (0x4)
T5854 87698:949.562 JLINK_ReadMemEx(0x40001040, 0x4 Bytes, Flags = 0x02000000)
T5854 87698:949.574   CPU_ReadMem(4 bytes @ 0x40001040)
T5854 87698:950.979   Data:  00 00 00 00
T5854 87698:950.998 - 1.441ms returns 4 (0x4)
T5854 87698:951.015 JLINK_ReadMemEx(0x40001044, 0x4 Bytes, Flags = 0x02000000)
T5854 87698:951.027   CPU_ReadMem(4 bytes @ 0x40001044)
T5854 87698:952.437   Data:  00 00 00 00
T5854 87698:952.456 - 1.446ms returns 4 (0x4)
T5854 87698:952.473 JLINK_ReadMemEx(0x40001048, 0x4 Bytes, Flags = 0x02000000)
T5854 87698:952.485   CPU_ReadMem(4 bytes @ 0x40001048)
T5854 87698:953.859   Data:  00 00 00 00
T5854 87698:953.878 - 1.410ms returns 4 (0x4)
T5854 87698:953.894 JLINK_ReadMemEx(0x4000104C, 0x4 Bytes, Flags = 0x02000000)
T5854 87698:953.907   CPU_ReadMem(4 bytes @ 0x4000104C)
T5854 87698:955.312   Data:  00 00 00 00
T5854 87698:955.337 - 1.447ms returns 4 (0x4)
T5854 87698:955.354 JLINK_ReadMemEx(0x40001050, 0x4 Bytes, Flags = 0x02000000)
T5854 87698:955.368   CPU_ReadMem(4 bytes @ 0x40001050)
T5854 87698:956.744   Data:  00 00 00 00
T5854 87698:956.763 - 1.413ms returns 4 (0x4)
T6018 87698:956.820 JLINK_HasError()
T6018 87698:956.845 JLINK_IsHalted()
T6018 87698:958.337 - 1.502ms returns FALSE
T28A4 87698:959.847 Looking for J-Link GUI Server exe at: d:\Keil_v5\ARM\Segger\JLinkGUIServer.exe
T28A4 87698:959.939 Looking for J-Link GUI Server exe at: C:\Program Files (x86)\SEGGER\JLink\JLinkGUIServer.exe
T28A4 87698:959.990 Forking J-Link GUI Server: C:\Program Files (x86)\SEGGER\JLink\JLinkGUIServer.exe
T5854 87698:974.051 JLINK_ReadMemEx(0x40001000, 0x4 Bytes, Flags = 0x02000000)
T5854 87698:974.082   CPU_ReadMem(4 bytes @ 0x40001000)
T5854 87698:975.492   Data:  81 00 00 00
T5854 87698:975.522 - 1.475ms returns 4 (0x4)
T5854 87698:975.544 JLINK_ReadMemEx(0x40001004, 0x4 Bytes, Flags = 0x02000000)
T5854 87698:975.558   CPU_ReadMem(4 bytes @ 0x40001004)
T5854 87698:976.943   Data:  20 00 00 00
T5854 87698:976.965 - 1.425ms returns 4 (0x4)
T5854 87698:976.985 JLINK_ReadMemEx(0x40001008, 0x4 Bytes, Flags = 0x02000000)
T5854 87698:977.000   CPU_ReadMem(4 bytes @ 0x40001008)
T5854 87698:978.321   Data:  00 00 00 00
T5854 87698:978.344 - 1.362ms returns 4 (0x4)
T5854 87698:978.364 JLINK_ReadMemEx(0x4000100C, 0x4 Bytes, Flags = 0x02000000)
T5854 87698:978.384   CPU_ReadMem(4 bytes @ 0x4000100C)
T5854 87698:979.622   Data:  01 00 00 00
T5854 87698:979.647 - 1.287ms returns 4 (0x4)
T5854 87698:979.666 JLINK_ReadMemEx(0x40001010, 0x4 Bytes, Flags = 0x02000000)
T5854 87698:979.680   CPU_ReadMem(4 bytes @ 0x40001010)
T5854 87698:980.949   Data:  00 00 00 00
T5854 87698:980.965 - 1.303ms returns 4 (0x4)
T5854 87698:980.981 JLINK_ReadMemEx(0x40001014, 0x4 Bytes, Flags = 0x02000000)
T5854 87698:980.993   CPU_ReadMem(4 bytes @ 0x40001014)
T5854 87698:982.304   Data:  00 00 00 00
T5854 87698:982.321 - 1.344ms returns 4 (0x4)
T5854 87698:982.337 JLINK_ReadMemEx(0x40001018, 0x4 Bytes, Flags = 0x02000000)
T5854 87698:982.349   CPU_ReadMem(4 bytes @ 0x40001018)
T5854 87698:983.649   Data:  00 00 00 00
T5854 87698:983.667 - 1.334ms returns 4 (0x4)
T5854 87698:983.684 JLINK_ReadMemEx(0x4000101C, 0x4 Bytes, Flags = 0x02000000)
T5854 87698:983.697   CPU_ReadMem(4 bytes @ 0x4000101C)
T5854 87698:984.981   Data:  00 00 00 00
T5854 87698:985.000 - 1.320ms returns 4 (0x4)
T5854 87698:985.016 JLINK_ReadMemEx(0x40001020, 0x4 Bytes, Flags = 0x02000000)
T5854 87698:985.029   CPU_ReadMem(4 bytes @ 0x40001020)
T5854 87698:986.463   Data:  00 00 00 00
T5854 87698:986.483 - 1.470ms returns 4 (0x4)
T5854 87698:986.500 JLINK_ReadMemEx(0x40001024, 0x4 Bytes, Flags = 0x02000000)
T5854 87698:986.512   CPU_ReadMem(4 bytes @ 0x40001024)
T5854 87698:987.909   Data:  59 00 00 00
T5854 87698:987.928 - 1.433ms returns 4 (0x4)
T5854 87698:987.953 JLINK_ReadMemEx(0x40001028, 0x4 Bytes, Flags = 0x02000000)
T5854 87698:987.966   CPU_ReadMem(4 bytes @ 0x40001028)
T5854 87698:989.370   Data:  08 00 00 00
T5854 87698:989.391 - 1.442ms returns 4 (0x4)
T5854 87698:989.410 JLINK_ReadMemEx(0x4000102C, 0x4 Bytes, Flags = 0x02000000)
T5854 87698:989.425   CPU_ReadMem(4 bytes @ 0x4000102C)
T5854 87698:990.764   Data:  64 00 00 00
T5854 87698:990.784 - 1.378ms returns 4 (0x4)
T5854 87698:990.802 JLINK_ReadMemEx(0x40001030, 0x4 Bytes, Flags = 0x02000000)
T5854 87698:990.815   CPU_ReadMem(4 bytes @ 0x40001030)
T5854 87698:992.157   Data:  00 00 00 00
T5854 87698:992.174 - 1.376ms returns 4 (0x4)
T5854 87698:992.189 JLINK_ReadMemEx(0x40001034, 0x4 Bytes, Flags = 0x02000000)
T5854 87698:992.201   CPU_ReadMem(4 bytes @ 0x40001034)
T5854 87698:993.572   Data:  00 00 00 00
T5854 87698:993.591 - 1.406ms returns 4 (0x4)
T5854 87698:993.610 JLINK_ReadMemEx(0x40001038, 0x4 Bytes, Flags = 0x02000000)
T5854 87698:993.623   CPU_ReadMem(4 bytes @ 0x40001038)
T5854 87698:995.003   Data:  00 00 00 00
T5854 87698:995.022 - 1.416ms returns 4 (0x4)
T5854 87698:995.041 JLINK_ReadMemEx(0x4000103C, 0x4 Bytes, Flags = 0x02000000)
T5854 87698:995.053   CPU_ReadMem(4 bytes @ 0x4000103C)
T5854 87698:996.423   Data:  00 00 00 00
T5854 87698:996.444 - 1.407ms returns 4 (0x4)
T5854 87698:996.464 JLINK_ReadMemEx(0x40001040, 0x4 Bytes, Flags = 0x02000000)
T5854 87698:996.479   CPU_ReadMem(4 bytes @ 0x40001040)
T5854 87698:997.782   Data:  00 00 00 00
T5854 87698:997.801 - 1.341ms returns 4 (0x4)
T5854 87698:997.821 JLINK_ReadMemEx(0x40001044, 0x4 Bytes, Flags = 0x02000000)
T5854 87698:997.834   CPU_ReadMem(4 bytes @ 0x40001044)
T5854 87698:999.045   Data:  00 00 00 00
T5854 87698:999.064 - 1.247ms returns 4 (0x4)
T5854 87698:999.082 JLINK_ReadMemEx(0x40001048, 0x4 Bytes, Flags = 0x02000000)
T5854 87698:999.095   CPU_ReadMem(4 bytes @ 0x40001048)
T28A4 87698:999.837   J-Link GUI Server info: "J-Link GUI server V7.20b "
T5854 87699:000.407   Data:  00 00 00 00
T5854 87699:000.425 - 1.347ms returns 4 (0x4)
T5854 87699:000.447 JLINK_ReadMemEx(0x4000104C, 0x4 Bytes, Flags = 0x02000000)
T5854 87699:000.468   CPU_ReadMem(4 bytes @ 0x4000104C)
T5854 87699:001.713   Data:  00 00 00 00
T5854 87699:001.730 - 1.287ms returns 4 (0x4)
T5854 87699:001.754 JLINK_ReadMemEx(0x40001050, 0x4 Bytes, Flags = 0x02000000)
T5854 87699:001.767   CPU_ReadMem(4 bytes @ 0x40001050)
T5854 87699:003.050   Data:  00 00 00 00
T5854 87699:003.066 - 1.319ms returns 4 (0x4)
T6018 87699:058.430 JLINK_HasError()
T6018 87699:058.458 JLINK_IsHalted()
T6018 87699:059.914 - 1.470ms returns FALSE
T6018 87699:162.743 JLINK_HasError()
T6018 87699:162.836 JLINK_IsHalted()
T6018 87699:164.313 - 1.491ms returns FALSE
T6018 87699:264.873 JLINK_HasError()
T6018 87699:264.901 JLINK_HasError()
T6018 87699:264.912 JLINK_ReadMemU32(0xE0001004, 0x1 Items)
T6018 87699:264.929   Data:  69 8B 4A 00
T6018 87699:264.948   Debug reg: DWT_CYCCNT
T6018 87699:264.970 - 0.063ms returns 1 (0x1)
T5854 87699:265.045 JLINK_ReadMemEx(0x40001000, 0x4 Bytes, Flags = 0x02000000)
T5854 87699:265.071   CPU_ReadMem(4 bytes @ 0x40001000)
T5854 87699:266.412   Data:  81 00 00 00
T5854 87699:266.430 - 1.388ms returns 4 (0x4)
T5854 87699:266.448 JLINK_ReadMemEx(0x40001004, 0x4 Bytes, Flags = 0x02000000)
T5854 87699:266.461   CPU_ReadMem(4 bytes @ 0x40001004)
T5854 87699:267.726   Data:  20 00 00 00
T5854 87699:267.744 - 1.299ms returns 4 (0x4)
T5854 87699:267.769 JLINK_ReadMemEx(0x40001008, 0x4 Bytes, Flags = 0x02000000)
T5854 87699:267.791   CPU_ReadMem(4 bytes @ 0x40001008)
T5854 87699:269.049   Data:  00 00 00 00
T5854 87699:269.066 - 1.300ms returns 4 (0x4)
T5854 87699:269.082 JLINK_ReadMemEx(0x4000100C, 0x4 Bytes, Flags = 0x02000000)
T5854 87699:269.094   CPU_ReadMem(4 bytes @ 0x4000100C)
T5854 87699:270.403   Data:  01 00 00 00
T5854 87699:270.423 - 1.346ms returns 4 (0x4)
T5854 87699:270.441 JLINK_ReadMemEx(0x40001010, 0x4 Bytes, Flags = 0x02000000)
T5854 87699:270.454   CPU_ReadMem(4 bytes @ 0x40001010)
T5854 87699:271.731   Data:  00 00 00 00
T5854 87699:271.753 - 1.316ms returns 4 (0x4)
T5854 87699:271.773 JLINK_ReadMemEx(0x40001014, 0x4 Bytes, Flags = 0x02000000)
T5854 87699:271.788   CPU_ReadMem(4 bytes @ 0x40001014)
T5854 87699:273.105   Data:  00 00 00 00
T5854 87699:273.138 - 1.370ms returns 4 (0x4)
T5854 87699:273.157 JLINK_ReadMemEx(0x40001018, 0x4 Bytes, Flags = 0x02000000)
T5854 87699:273.171   CPU_ReadMem(4 bytes @ 0x40001018)
T5854 87699:274.422   Data:  00 00 00 00
T5854 87699:274.448 - 1.296ms returns 4 (0x4)
T5854 87699:274.480 JLINK_ReadMemEx(0x4000101C, 0x4 Bytes, Flags = 0x02000000)
T5854 87699:274.499   CPU_ReadMem(4 bytes @ 0x4000101C)
T5854 87699:275.733   Data:  00 00 00 00
T5854 87699:275.763 - 1.289ms returns 4 (0x4)
T5854 87699:275.789 JLINK_ReadMemEx(0x40001020, 0x4 Bytes, Flags = 0x02000000)
T5854 87699:275.809   CPU_ReadMem(4 bytes @ 0x40001020)
T5854 87699:277.064   Data:  00 00 00 00
T5854 87699:277.103 - 1.321ms returns 4 (0x4)
T5854 87699:277.143 JLINK_ReadMemEx(0x40001024, 0x4 Bytes, Flags = 0x02000000)
T5854 87699:277.169   CPU_ReadMem(4 bytes @ 0x40001024)
T5854 87699:281.642   Data:  59 00 00 00
T5854 87699:281.692 - 4.556ms returns 4 (0x4)
T5854 87699:281.747 JLINK_ReadMemEx(0x40001028, 0x4 Bytes, Flags = 0x02000000)
T5854 87699:281.779   CPU_ReadMem(4 bytes @ 0x40001028)
T5854 87699:285.789   Data:  08 00 00 00
T5854 87699:285.823 - 4.082ms returns 4 (0x4)
T5854 87699:285.854 JLINK_ReadMemEx(0x4000102C, 0x4 Bytes, Flags = 0x02000000)
T5854 87699:285.875   CPU_ReadMem(4 bytes @ 0x4000102C)
T5854 87699:287.236   Data:  64 00 00 00
T5854 87699:287.273 - 1.428ms returns 4 (0x4)
T5854 87699:287.297 JLINK_ReadMemEx(0x40001030, 0x4 Bytes, Flags = 0x02000000)
T5854 87699:287.312   CPU_ReadMem(4 bytes @ 0x40001030)
T5854 87699:288.644   Data:  00 00 00 00
T5854 87699:288.670 - 1.384ms returns 4 (0x4)
T5854 87699:288.772 JLINK_ReadMemEx(0x40001034, 0x4 Bytes, Flags = 0x02000000)
T5854 87699:288.796   CPU_ReadMem(4 bytes @ 0x40001034)
T5854 87699:290.111   Data:  00 00 00 00
T5854 87699:290.134 - 1.367ms returns 4 (0x4)
T5854 87699:290.167 JLINK_ReadMemEx(0x40001038, 0x4 Bytes, Flags = 0x02000000)
T5854 87699:290.183   CPU_ReadMem(4 bytes @ 0x40001038)
T5854 87699:291.409   Data:  00 00 00 00
T5854 87699:291.430 - 1.267ms returns 4 (0x4)
T5854 87699:291.452 JLINK_ReadMemEx(0x4000103C, 0x4 Bytes, Flags = 0x02000000)
T5854 87699:291.466   CPU_ReadMem(4 bytes @ 0x4000103C)
T5854 87699:292.694   Data:  00 00 00 00
T5854 87699:292.728 - 1.280ms returns 4 (0x4)
T5854 87699:292.745 JLINK_ReadMemEx(0x40001040, 0x4 Bytes, Flags = 0x02000000)
T5854 87699:292.757   CPU_ReadMem(4 bytes @ 0x40001040)
T5854 87699:294.014   Data:  00 00 00 00
T5854 87699:294.045 - 1.307ms returns 4 (0x4)
T5854 87699:294.070 JLINK_ReadMemEx(0x40001044, 0x4 Bytes, Flags = 0x02000000)
T5854 87699:294.091   CPU_ReadMem(4 bytes @ 0x40001044)
T5854 87699:295.364   Data:  00 00 00 00
T5854 87699:295.385 - 1.319ms returns 4 (0x4)
T5854 87699:295.402 JLINK_ReadMemEx(0x40001048, 0x4 Bytes, Flags = 0x02000000)
T5854 87699:295.430   CPU_ReadMem(4 bytes @ 0x40001048)
T5854 87699:296.697   Data:  00 00 00 00
T5854 87699:296.717 - 1.319ms returns 4 (0x4)
T5854 87699:296.734 JLINK_ReadMemEx(0x4000104C, 0x4 Bytes, Flags = 0x02000000)
T5854 87699:296.747   CPU_ReadMem(4 bytes @ 0x4000104C)
T5854 87699:297.993   Data:  00 00 00 00
T5854 87699:298.015 - 1.286ms returns 4 (0x4)
T5854 87699:298.033 JLINK_ReadMemEx(0x40001050, 0x4 Bytes, Flags = 0x02000000)
T5854 87699:298.061   CPU_ReadMem(4 bytes @ 0x40001050)
T5854 87699:299.414   Data:  00 00 00 00
T5854 87699:299.432 - 1.403ms returns 4 (0x4)
T6018 87699:299.505 JLINK_IsHalted()
T6018 87699:300.948 - 1.453ms returns FALSE
T6018 87699:401.574 JLINK_HasError()
T6018 87699:401.602 JLINK_IsHalted()
T6018 87699:403.051 - 1.460ms returns FALSE
T6018 87699:503.239 JLINK_HasError()
T6018 87699:503.293 JLINK_IsHalted()
T6018 87699:504.683 - 1.409ms returns FALSE
T6018 87699:604.964 JLINK_HasError()
T6018 87699:605.004 JLINK_IsHalted()
T6018 87699:606.382 - 1.388ms returns FALSE
T6018 87699:706.756 JLINK_HasError()
T6018 87699:706.802 JLINK_IsHalted()
T6018 87699:708.315 - 1.524ms returns FALSE
T6018 87699:808.468 JLINK_HasError()
T6018 87699:808.500 JLINK_HasError()
T6018 87699:808.511 JLINK_ReadMemU32(0xE0001004, 0x1 Items)
T6018 87699:808.527   Data:  69 8B 4A 00
T6018 87699:808.541   Debug reg: DWT_CYCCNT
T6018 87699:808.553 - 0.046ms returns 1 (0x1)
T5854 87699:808.657 JLINK_ReadMemEx(0x40001000, 0x4 Bytes, Flags = 0x02000000)
T5854 87699:808.677   CPU_ReadMem(4 bytes @ 0x40001000)
T5854 87699:810.032   Data:  81 00 00 00
T5854 87699:810.066 - 1.414ms returns 4 (0x4)
T5854 87699:810.094 JLINK_ReadMemEx(0x40001004, 0x4 Bytes, Flags = 0x02000000)
T5854 87699:810.121   CPU_ReadMem(4 bytes @ 0x40001004)
T5854 87699:811.771   Data:  20 00 00 00
T5854 87699:811.802 - 1.712ms returns 4 (0x4)
T5854 87699:811.826 JLINK_ReadMemEx(0x40001008, 0x4 Bytes, Flags = 0x02000000)
T5854 87699:811.843   CPU_ReadMem(4 bytes @ 0x40001008)
T5854 87699:813.534   Data:  00 00 00 00
T5854 87699:813.583 - 1.762ms returns 4 (0x4)
T5854 87699:813.635 JLINK_ReadMemEx(0x4000100C, 0x4 Bytes, Flags = 0x02000000)
T5854 87699:813.660   CPU_ReadMem(4 bytes @ 0x4000100C)
T5854 87699:815.111   Data:  01 00 00 00
T5854 87699:815.149 - 1.518ms returns 4 (0x4)
T5854 87699:815.173 JLINK_ReadMemEx(0x40001010, 0x4 Bytes, Flags = 0x02000000)
T5854 87699:815.189   CPU_ReadMem(4 bytes @ 0x40001010)
T5854 87699:816.613   Data:  00 00 00 00
T5854 87699:816.636 - 1.467ms returns 4 (0x4)
T5854 87699:816.660 JLINK_ReadMemEx(0x40001014, 0x4 Bytes, Flags = 0x02000000)
T5854 87699:816.674   CPU_ReadMem(4 bytes @ 0x40001014)
T5854 87699:818.064   Data:  00 00 00 00
T5854 87699:818.087 - 1.431ms returns 4 (0x4)
T5854 87699:818.105 JLINK_ReadMemEx(0x40001018, 0x4 Bytes, Flags = 0x02000000)
T5854 87699:818.120   CPU_ReadMem(4 bytes @ 0x40001018)
T5854 87699:819.478   Data:  00 00 00 00
T5854 87699:819.501 - 1.400ms returns 4 (0x4)
T5854 87699:819.527 JLINK_ReadMemEx(0x4000101C, 0x4 Bytes, Flags = 0x02000000)
T5854 87699:819.541   CPU_ReadMem(4 bytes @ 0x4000101C)
T5854 87699:820.913   Data:  00 00 00 00
T5854 87699:820.945 - 1.422ms returns 4 (0x4)
T5854 87699:820.963 JLINK_ReadMemEx(0x40001020, 0x4 Bytes, Flags = 0x02000000)
T5854 87699:820.977   CPU_ReadMem(4 bytes @ 0x40001020)
T5854 87699:822.349   Data:  00 00 00 00
T5854 87699:822.394 - 1.435ms returns 4 (0x4)
T5854 87699:822.414 JLINK_ReadMemEx(0x40001024, 0x4 Bytes, Flags = 0x02000000)
T5854 87699:822.451   CPU_ReadMem(4 bytes @ 0x40001024)
T5854 87699:823.795   Data:  45 00 00 00
T5854 87699:823.819 - 1.409ms returns 4 (0x4)
T5854 87699:824.252 JLINK_ReadMemEx(0x40001028, 0x4 Bytes, Flags = 0x02000000)
T5854 87699:824.295   CPU_ReadMem(4 bytes @ 0x40001028)
T5854 87699:825.645   Data:  08 00 00 00
T5854 87699:825.683 - 1.435ms returns 4 (0x4)
T5854 87699:825.702 JLINK_ReadMemEx(0x4000102C, 0x4 Bytes, Flags = 0x02000000)
T5854 87699:825.717   CPU_ReadMem(4 bytes @ 0x4000102C)
T5854 87699:827.222   Data:  64 00 00 00
T5854 87699:827.252 - 1.553ms returns 4 (0x4)
T5854 87699:827.272 JLINK_ReadMemEx(0x40001030, 0x4 Bytes, Flags = 0x02000000)
T5854 87699:827.288   CPU_ReadMem(4 bytes @ 0x40001030)
T5854 87699:828.669   Data:  00 00 00 00
T5854 87699:828.730 - 1.462ms returns 4 (0x4)
T5854 87699:828.754 JLINK_ReadMemEx(0x40001034, 0x4 Bytes, Flags = 0x02000000)
T5854 87699:828.787   CPU_ReadMem(4 bytes @ 0x40001034)
T5854 87699:830.190   Data:  00 00 00 00
T5854 87699:830.216 - 1.467ms returns 4 (0x4)
T5854 87699:830.237 JLINK_ReadMemEx(0x40001038, 0x4 Bytes, Flags = 0x02000000)
T5854 87699:830.251   CPU_ReadMem(4 bytes @ 0x40001038)
T5854 87699:831.613   Data:  00 00 00 00
T5854 87699:831.636 - 1.404ms returns 4 (0x4)
T5854 87699:831.658 JLINK_ReadMemEx(0x4000103C, 0x4 Bytes, Flags = 0x02000000)
T5854 87699:831.672   CPU_ReadMem(4 bytes @ 0x4000103C)
T5854 87699:833.010   Data:  00 00 00 00
T5854 87699:833.034 - 1.380ms returns 4 (0x4)
T5854 87699:833.055 JLINK_ReadMemEx(0x40001040, 0x4 Bytes, Flags = 0x02000000)
T5854 87699:833.070   CPU_ReadMem(4 bytes @ 0x40001040)
T5854 87699:834.430   Data:  00 00 00 00
T5854 87699:834.458 - 1.407ms returns 4 (0x4)
